Circuit: * C:\users\akash\Desktop\ActiveFiltersPractice\Project\Draft5.asc

Ignoring BSIM parameter XL
Ignoring BSIM parameter XW
Ignoring BSIM parameter XL
Ignoring BSIM parameter XW
Warning: Pd = 0 is less than W.
Warning: Ps = 0 is less than W.
Warning: Pd = 0 is less than W.
Warning: Ps = 0 is less than W.
Warning: Pd = 0 is less than W.
Warning: Ps = 0 is less than W.
Direct Newton iteration for .op point succeeded.
Semiconductor Device Operating Points:
                        --- BSIM3 MOSFETS ---
Name:        m3          m2          m1
Model:     tsmc35p     tsmc35n     tsmc35n
Id:        1.03e-04    1.02e-04    1.01e-04
Vgs:       0.00e+00    1.00e+00    8.20e-01
Vds:       1.65e+00    8.30e-01    8.20e-01
Vbs:       1.65e+00    0.00e+00    0.00e+00
Vth:      -7.97e-01    7.53e-01    7.49e-01
Vdsat:    -6.57e-01    1.86e-01    7.91e-02
Gm:        1.98e-04    8.85e-04    1.66e-03
Gds:       6.16e-06    1.60e-05    2.51e-05
Gmb        3.63e-05    2.20e-04    4.35e-04
Cbd:       0.00e+00    0.00e+00    0.00e+00
Cbs:       0.00e+00    0.00e+00    0.00e+00
Cgsov:     7.05e-16    3.27e-15    2.92e-14
Cgdov:     7.05e-16    3.27e-15    2.92e-14
Cgbov:     5.00e-17    4.53e-17    4.53e-17
dQgdVgb:   7.32e-15    2.55e-14    2.05e-13
dQgdVdb:  -6.47e-16   -3.16e-15   -2.84e-14
dQgdVsb:  -6.36e-15   -2.04e-14   -1.52e-13
dQddVgb:  -3.13e-15   -1.10e-14   -8.50e-14
dQddVdb:   6.74e-16    3.21e-15    2.87e-14
dQddVsb:   2.97e-15    1.00e-14    7.32e-14
dQbdVgb:  -1.07e-15   -3.58e-15   -3.54e-14
dQbdVdb:   4.12e-18    1.69e-17    1.46e-16
dQbdVsb:  -2.90e-16   -2.97e-15   -2.32e-14



Date: Tue Nov 01 16:49:28 2022
Total elapsed time: 0.063 seconds.

tnom = 27
temp = 27
method = trap
totiter = 5
traniter = 0
tranpoints = 0
accept = 0
rejected = 0
matrix size = 16
fillins = 0
solver = Normal
Matrix Compiler1: 610 bytes object code size
Matrix Compiler2: 936 bytes object code size
