Circuit: * C:\users\akash\Desktop\ActiveFiltersPractice\Project\New_Transconductor_NMOS_Biasing.asc

Ignoring BSIM parameter XL
Ignoring BSIM parameter XW
Warning: Pd = 0 is less than W.
Warning: Ps = 0 is less than W.
Warning: Pd = 0 is less than W.
Warning: Ps = 0 is less than W.
Direct Newton iteration for .op point succeeded.
Semiconductor Device Operating Points:
                        --- BSIM3 MOSFETS ---
Name:        m2          m1
Model:     tsmc35n     tsmc35n
Id:        2.60e-04    1.30e-04
Vgs:       1.00e+00    1.09e+00
Vds:       5.56e-01    1.09e+00
Vbs:       0.00e+00   -5.56e-01
Vth:       6.65e-01    8.37e-01
Vdsat:     2.38e-01    2.07e-01
Gm:        1.55e-03    1.00e-03
Gds:       5.96e-05    1.60e-05
Gmb        3.79e-04    2.14e-04
Cbd:       0.00e+00    0.00e+00
Cbs:       0.00e+00    0.00e+00
Cgsov:     4.65e-15    3.31e-15
Cgdov:     4.65e-15    3.31e-15
Cgbov:     7.25e-16    3.63e-16
dQgdVgb:   3.73e-14    2.59e-14
dQgdVdb:  -4.53e-15   -3.19e-15
dQgdVsb:  -2.95e-14   -2.08e-14
dQddVgb:  -1.57e-14   -1.11e-14
dQddVdb:   4.59e-15    3.24e-15
dQddVsb:   1.43e-14    9.70e-15
dQbdVgb:  -5.90e-15   -3.71e-15
dQbdVdb:  -9.84e-18    1.21e-17
dQbdVsb:  -3.87e-15   -1.89e-15



Date: Tue Nov 15 18:57:22 2022
Total elapsed time: 0.068 seconds.

tnom = 27
temp = 27
method = trap
totiter = 14
traniter = 0
tranpoints = 0
accept = 0
rejected = 0
matrix size = 9
fillins = 0
solver = Normal
Matrix Compiler1: 332 bytes object code size
Matrix Compiler2: 523 bytes object code size
