Circuit: * C:\users\akash\Desktop\ActiveFiltersPractice\Project\Transconductor_Bias_Width_Calculation.asc

Ignoring BSIM parameter XL
Ignoring BSIM parameter XW
Ignoring BSIM parameter XL
Ignoring BSIM parameter XW
Warning: Pd = 0 is less than W.
Warning: Ps = 0 is less than W.
Warning: Pd = 0 is less than W.
Warning: Ps = 0 is less than W.
Warning: Pd = 0 is less than W.
Warning: Ps = 0 is less than W.
Direct Newton iteration for .op point succeeded.
Semiconductor Device Operating Points:
                        --- BSIM3 MOSFETS ---
Name:        m3          m2          m1
Model:     tsmc35p     tsmc35n     tsmc35n
Id:        1.04e-04    2.05e-04    1.02e-04
Vgs:       0.00e+00    1.00e+00    8.20e-01
Vds:       1.65e+00    8.30e-01    8.20e-01
Vbs:       1.65e+00    0.00e+00    0.00e+00
Vth:      -8.05e-01    7.53e-01    7.51e-01
Vdsat:    -6.45e-01    1.86e-01    7.80e-02
Gm:        2.03e-04    1.77e-03    1.68e-03
Gds:       6.19e-06    3.19e-05    2.55e-05
Gmb        3.73e-05    4.39e-04    4.41e-04
Cbd:       0.00e+00    0.00e+00    0.00e+00
Cbs:       0.00e+00    0.00e+00    0.00e+00
Cgsov:     7.31e-16    6.53e-15    3.05e-14
Cgdov:     7.31e-16    6.53e-15    3.05e-14
Cgbov:     1.00e-16    9.06e-17    9.06e-17
dQgdVgb:   7.66e-15    5.10e-14    2.14e-13
dQgdVdb:  -6.71e-16   -6.32e-15   -2.97e-14
dQgdVsb:  -6.63e-15   -4.07e-14   -1.58e-13
dQddVgb:  -3.24e-15   -2.19e-14   -8.84e-14
dQddVdb:   6.99e-16    6.41e-15    3.00e-14
dQddVsb:   3.09e-15    2.01e-14    7.59e-14
dQbdVgb:  -1.17e-15   -7.16e-15   -3.73e-14
dQbdVdb:   4.04e-18    3.37e-17    1.51e-16
dQbdVsb:  -2.74e-16   -5.93e-15   -2.40e-14



Date: Thu Nov 03 14:30:49 2022
Total elapsed time: 0.075 seconds.

tnom = 27
temp = 27
method = trap
totiter = 6
traniter = 0
tranpoints = 0
accept = 0
rejected = 0
matrix size = 16
fillins = 0
solver = Normal
Matrix Compiler1: 610 bytes object code size
Matrix Compiler2: 936 bytes object code size
